,vds,vgs,vbs,id,rds,const_var,const_var_val,sweeps,out_col
0,0.0,0.8,0.0,0.0,,vbs,0.0,vds 0.0 3.3 0.05 vgs 0.8 3.3 0.5,id
1,0.0,1.3,0.0,0.0,,vbs,0.0,vds 0.0 3.3 0.05 vgs 0.8 3.3 0.5,id
2,0.0,1.8,0.0,0.0,,vbs,0.0,vds 0.0 3.3 0.05 vgs 0.8 3.3 0.5,id
3,0.0,2.3,0.0,0.0,,vbs,0.0,vds 0.0 3.3 0.05 vgs 0.8 3.3 0.5,id
4,0.0,2.8,0.0,0.0,,vbs,0.0,vds 0.0 3.3 0.05 vgs 0.8 3.3 0.5,id
5,0.0,3.3,0.0,0.0,,vbs,0.0,vds 0.0 3.3 0.05 vgs 0.8 3.3 0.5,id
6,0.05,0.8,0.0,1.05905e-06,,vbs,0.0,vds 0.0 3.3 0.05 vgs 0.8 3.3 0.5,id
7,0.05,1.3,0.0,2.70199e-06,,vbs,0.0,vds 0.0 3.3 0.05 vgs 0.8 3.3 0.5,id
8,0.05,1.8,0.0,4.031e-06,,vbs,0.0,vds 0.0 3.3 0.05 vgs 0.8 3.3 0.5,id
9,0.05,2.3,0.0,5.12945e-06,,vbs,0.0,vds 0.0 3.3 0.05 vgs 0.8 3.3 0.5,id
10,0.05,2.8,0.0,6.06215e-06,,vbs,0.0,vds 0.0 3.3 0.05 vgs 0.8 3.3 0.5,id
11,0.05,3.3,0.0,6.87266e-06,,vbs,0.0,vds 0.0 3.3 0.05 vgs 0.8 3.3 0.5,id
12,0.1,0.8,0.0,1.92086e-06,,vbs,0.0,vds 0.0 3.3 0.05 vgs 0.8 3.3 0.5,id
13,0.1,1.3,0.0,5.14979e-06,,vbs,0.0,vds 0.0 3.3 0.05 vgs 0.8 3.3 0.5,id
14,0.1,1.8,0.0,7.7859e-06,,vbs,0.0,vds 0.0 3.3 0.05 vgs 0.8 3.3 0.5,id
15,0.1,2.3,0.0,9.97303e-06,,vbs,0.0,vds 0.0 3.3 0.05 vgs 0.8 3.3 0.5,id
16,0.1,2.8,0.0,1.18345e-05,,vbs,0.0,vds 0.0 3.3 0.05 vgs 0.8 3.3 0.5,id
17,0.1,3.3,0.0,1.34548e-05,,vbs,0.0,vds 0.0 3.3 0.05 vgs 0.8 3.3 0.5,id
18,0.15,0.8,0.0,2.59917e-06,,vbs,0.0,vds 0.0 3.3 0.05 vgs 0.8 3.3 0.5,id
19,0.15,1.3,0.0,7.35683e-06,,vbs,0.0,vds 0.0 3.3 0.05 vgs 0.8 3.3 0.5,id
20,0.15,1.8,0.0,1.12777e-05,,vbs,0.0,vds 0.0 3.3 0.05 vgs 0.8 3.3 0.5,id
21,0.15,2.3,0.0,1.4543e-05,,vbs,0.0,vds 0.0 3.3 0.05 vgs 0.8 3.3 0.5,id
22,0.15,2.8,0.0,1.73286e-05,,vbs,0.0,vds 0.0 3.3 0.05 vgs 0.8 3.3 0.5,id
23,0.15,3.3,0.0,1.9757e-05,,vbs,0.0,vds 0.0 3.3 0.05 vgs 0.8 3.3 0.5,id
24,0.2,0.8,0.0,3.10937e-06,,vbs,0.0,vds 0.0 3.3 0.05 vgs 0.8 3.3 0.5,id
25,0.2,1.3,0.0,9.33565e-06,,vbs,0.0,vds 0.0 3.3 0.05 vgs 0.8 3.3 0.5,id
26,0.2,1.8,0.0,1.45186e-05,,vbs,0.0,vds 0.0 3.3 0.05 vgs 0.8 3.3 0.5,id
27,0.2,2.3,0.0,1.88509e-05,,vbs,0.0,vds 0.0 3.3 0.05 vgs 0.8 3.3 0.5,id
28,0.2,2.8,0.0,2.25552e-05,,vbs,0.0,vds 0.0 3.3 0.05 vgs 0.8 3.3 0.5,id
29,0.2,3.3,0.0,2.57895e-05,,vbs,0.0,vds 0.0 3.3 0.05 vgs 0.8 3.3 0.5,id
30,0.25,0.8,0.0,3.47218e-06,,vbs,0.0,vds 0.0 3.3 0.05 vgs 0.8 3.3 0.5,id
31,0.25,1.3,0.0,1.1098e-05,,vbs,0.0,vds 0.0 3.3 0.05 vgs 0.8 3.3 0.5,id
32,0.25,1.8,0.0,1.752e-05,,vbs,0.0,vds 0.0 3.3 0.05 vgs 0.8 3.3 0.5,id
33,0.25,2.3,0.0,2.29076e-05,,vbs,0.0,vds 0.0 3.3 0.05 vgs 0.8 3.3 0.5,id
34,0.25,2.8,0.0,2.75246e-05,,vbs,0.0,vds 0.0 3.3 0.05 vgs 0.8 3.3 0.5,id
35,0.25,3.3,0.0,3.15621e-05,,vbs,0.0,vds 0.0 3.3 0.05 vgs 0.8 3.3 0.5,id
36,0.3,0.8,0.0,3.71868e-06,,vbs,0.0,vds 0.0 3.3 0.05 vgs 0.8 3.3 0.5,id
37,0.3,1.3,0.0,1.26551e-05,,vbs,0.0,vds 0.0 3.3 0.05 vgs 0.8 3.3 0.5,id
38,0.3,1.8,0.0,2.02927e-05,,vbs,0.0,vds 0.0 3.3 0.05 vgs 0.8 3.3 0.5,id
39,0.3,2.3,0.0,2.67235e-05,,vbs,0.0,vds 0.0 3.3 0.05 vgs 0.8 3.3 0.5,id
40,0.3,2.8,0.0,3.22467e-05,,vbs,0.0,vds 0.0 3.3 0.05 vgs 0.8 3.3 0.5,id
41,0.3,3.3,0.0,3.70838e-05,,vbs,0.0,vds 0.0 3.3 0.05 vgs 0.8 3.3 0.5,id
42,0.35,0.8,0.0,3.88811e-06,,vbs,0.0,vds 0.0 3.3 0.05 vgs 0.8 3.3 0.5,id
43,0.35,1.3,0.0,1.40176e-05,,vbs,0.0,vds 0.0 3.3 0.05 vgs 0.8 3.3 0.5,id
44,0.35,1.8,0.0,2.28469e-05,,vbs,0.0,vds 0.0 3.3 0.05 vgs 0.8 3.3 0.5,id
45,0.35,2.3,0.0,3.03082e-05,,vbs,0.0,vds 0.0 3.3 0.05 vgs 0.8 3.3 0.5,id
46,0.35,2.8,0.0,3.67306e-05,,vbs,0.0,vds 0.0 3.3 0.05 vgs 0.8 3.3 0.5,id
47,0.35,3.3,0.0,4.23635e-05,,vbs,0.0,vds 0.0 3.3 0.05 vgs 0.8 3.3 0.5,id
48,0.4,0.8,0.0,4.01403e-06,,vbs,0.0,vds 0.0 3.3 0.05 vgs 0.8 3.3 0.5,id
49,0.4,1.3,0.0,1.51959e-05,,vbs,0.0,vds 0.0 3.3 0.05 vgs 0.8 3.3 0.5,id
50,0.4,1.8,0.0,2.51921e-05,,vbs,0.0,vds 0.0 3.3 0.05 vgs 0.8 3.3 0.5,id
51,0.4,2.3,0.0,3.36711e-05,,vbs,0.0,vds 0.0 3.3 0.05 vgs 0.8 3.3 0.5,id
52,0.4,2.8,0.0,4.09851e-05,,vbs,0.0,vds 0.0 3.3 0.05 vgs 0.8 3.3 0.5,id
53,0.4,3.3,0.0,4.74095e-05,,vbs,0.0,vds 0.0 3.3 0.05 vgs 0.8 3.3 0.5,id
54,0.45,0.8,0.0,4.11633e-06,,vbs,0.0,vds 0.0 3.3 0.05 vgs 0.8 3.3 0.5,id
55,0.45,1.3,0.0,1.62006e-05,,vbs,0.0,vds 0.0 3.3 0.05 vgs 0.8 3.3 0.5,id
56,0.45,1.8,0.0,2.73373e-05,,vbs,0.0,vds 0.0 3.3 0.05 vgs 0.8 3.3 0.5,id
57,0.45,2.3,0.0,3.68208e-05,,vbs,0.0,vds 0.0 3.3 0.05 vgs 0.8 3.3 0.5,id
58,0.45,2.8,0.0,4.50187e-05,,vbs,0.0,vds 0.0 3.3 0.05 vgs 0.8 3.3 0.5,id
59,0.45,3.3,0.0,5.22299e-05,,vbs,0.0,vds 0.0 3.3 0.05 vgs 0.8 3.3 0.5,id
60,0.5,0.8,0.0,4.20494e-06,,vbs,0.0,vds 0.0 3.3 0.05 vgs 0.8 3.3 0.5,id
61,0.5,1.3,0.0,1.70435e-05,,vbs,0.0,vds 0.0 3.3 0.05 vgs 0.8 3.3 0.5,id
62,0.5,1.8,0.0,2.92909e-05,,vbs,0.0,vds 0.0 3.3 0.05 vgs 0.8 3.3 0.5,id
63,0.5,2.3,0.0,3.97656e-05,,vbs,0.0,vds 0.0 3.3 0.05 vgs 0.8 3.3 0.5,id
64,0.5,2.8,0.0,4.88393e-05,,vbs,0.0,vds 0.0 3.3 0.05 vgs 0.8 3.3 0.5,id
65,0.5,3.3,0.0,5.68322e-05,,vbs,0.0,vds 0.0 3.3 0.05 vgs 0.8 3.3 0.5,id
66,0.55,0.8,0.0,4.28489e-06,,vbs,0.0,vds 0.0 3.3 0.05 vgs 0.8 3.3 0.5,id
67,0.55,1.3,0.0,1.77389e-05,,vbs,0.0,vds 0.0 3.3 0.05 vgs 0.8 3.3 0.5,id
68,0.55,1.8,0.0,3.10609e-05,,vbs,0.0,vds 0.0 3.3 0.05 vgs 0.8 3.3 0.5,id
69,0.55,2.3,0.0,4.25132e-05,,vbs,0.0,vds 0.0 3.3 0.05 vgs 0.8 3.3 0.5,id
70,0.55,2.8,0.0,5.24544e-05,,vbs,0.0,vds 0.0 3.3 0.05 vgs 0.8 3.3 0.5,id
71,0.55,3.3,0.0,6.12237e-05,,vbs,0.0,vds 0.0 3.3 0.05 vgs 0.8 3.3 0.5,id
72,0.6,0.8,0.0,4.35891e-06,,vbs,0.0,vds 0.0 3.3 0.05 vgs 0.8 3.3 0.5,id
73,0.6,1.3,0.0,1.83053e-05,,vbs,0.0,vds 0.0 3.3 0.05 vgs 0.8 3.3 0.5,id
74,0.6,1.8,0.0,3.26548e-05,,vbs,0.0,vds 0.0 3.3 0.05 vgs 0.8 3.3 0.5,id
75,0.6,2.3,0.0,4.50709e-05,,vbs,0.0,vds 0.0 3.3 0.05 vgs 0.8 3.3 0.5,id
76,0.6,2.8,0.0,5.58711e-05,,vbs,0.0,vds 0.0 3.3 0.05 vgs 0.8 3.3 0.5,id
77,0.6,3.3,0.0,6.54114e-05,,vbs,0.0,vds 0.0 3.3 0.05 vgs 0.8 3.3 0.5,id
78,0.65,0.8,0.0,4.42865e-06,,vbs,0.0,vds 0.0 3.3 0.05 vgs 0.8 3.3 0.5,id
79,0.65,1.3,0.0,1.8766e-05,,vbs,0.0,vds 0.0 3.3 0.05 vgs 0.8 3.3 0.5,id
80,0.65,1.8,0.0,3.40795e-05,,vbs,0.0,vds 0.0 3.3 0.05 vgs 0.8 3.3 0.5,id
81,0.65,2.3,0.0,4.74456e-05,,vbs,0.0,vds 0.0 3.3 0.05 vgs 0.8 3.3 0.5,id
82,0.65,2.8,0.0,5.90963e-05,,vbs,0.0,vds 0.0 3.3 0.05 vgs 0.8 3.3 0.5,id
83,0.65,3.3,0.0,6.94017e-05,,vbs,0.0,vds 0.0 3.3 0.05 vgs 0.8 3.3 0.5,id
84,0.7,0.8,0.0,4.49517e-06,,vbs,0.0,vds 0.0 3.3 0.05 vgs 0.8 3.3 0.5,id
85,0.7,1.3,0.0,1.91454e-05,,vbs,0.0,vds 0.0 3.3 0.05 vgs 0.8 3.3 0.5,id
86,0.7,1.8,0.0,3.53417e-05,,vbs,0.0,vds 0.0 3.3 0.05 vgs 0.8 3.3 0.5,id
87,0.7,2.3,0.0,4.96436e-05,,vbs,0.0,vds 0.0 3.3 0.05 vgs 0.8 3.3 0.5,id
88,0.7,2.8,0.0,6.21363e-05,,vbs,0.0,vds 0.0 3.3 0.05 vgs 0.8 3.3 0.5,id
89,0.7,3.3,0.0,7.32011e-05,,vbs,0.0,vds 0.0 3.3 0.05 vgs 0.8 3.3 0.5,id
90,0.75,0.8,0.0,4.55917e-06,,vbs,0.0,vds 0.0 3.3 0.05 vgs 0.8 3.3 0.5,id
91,0.75,1.3,0.0,1.94651e-05,,vbs,0.0,vds 0.0 3.3 0.05 vgs 0.8 3.3 0.5,id
92,0.75,1.8,0.0,3.6448e-05,,vbs,0.0,vds 0.0 3.3 0.05 vgs 0.8 3.3 0.5,id
93,0.75,2.3,0.0,5.16705e-05,,vbs,0.0,vds 0.0 3.3 0.05 vgs 0.8 3.3 0.5,id
94,0.75,2.8,0.0,6.49972e-05,,vbs,0.0,vds 0.0 3.3 0.05 vgs 0.8 3.3 0.5,id
95,0.75,3.3,0.0,7.68153e-05,,vbs,0.0,vds 0.0 3.3 0.05 vgs 0.8 3.3 0.5,id
96,0.8,0.8,0.0,4.62117e-06,,vbs,0.0,vds 0.0 3.3 0.05 vgs 0.8 3.3 0.5,id
97,0.8,1.3,0.0,1.97414e-05,,vbs,0.0,vds 0.0 3.3 0.05 vgs 0.8 3.3 0.5,id
98,0.8,1.8,0.0,3.74064e-05,,vbs,0.0,vds 0.0 3.3 0.05 vgs 0.8 3.3 0.5,id
99,0.8,2.3,0.0,5.35314e-05,,vbs,0.0,vds 0.0 3.3 0.05 vgs 0.8 3.3 0.5,id
100,0.8,2.8,0.0,6.76843e-05,,vbs,0.0,vds 0.0 3.3 0.05 vgs 0.8 3.3 0.5,id
101,0.8,3.3,0.0,8.02501e-05,,vbs,0.0,vds 0.0 3.3 0.05 vgs 0.8 3.3 0.5,id
102,0.85,0.8,0.0,4.68155e-06,,vbs,0.0,vds 0.0 3.3 0.05 vgs 0.8 3.3 0.5,id
103,0.85,1.3,0.0,1.99858e-05,,vbs,0.0,vds 0.0 3.3 0.05 vgs 0.8 3.3 0.5,id
104,0.85,1.8,0.0,3.82278e-05,,vbs,0.0,vds 0.0 3.3 0.05 vgs 0.8 3.3 0.5,id
105,0.85,2.3,0.0,5.52304e-05,,vbs,0.0,vds 0.0 3.3 0.05 vgs 0.8 3.3 0.5,id
106,0.85,2.8,0.0,7.02028e-05,,vbs,0.0,vds 0.0 3.3 0.05 vgs 0.8 3.3 0.5,id
107,0.85,3.3,0.0,8.35107e-05,,vbs,0.0,vds 0.0 3.3 0.05 vgs 0.8 3.3 0.5,id
108,0.9,0.8,0.0,4.7406e-06,,vbs,0.0,vds 0.0 3.3 0.05 vgs 0.8 3.3 0.5,id
109,0.9,1.3,0.0,2.02062e-05,,vbs,0.0,vds 0.0 3.3 0.05 vgs 0.8 3.3 0.5,id
110,0.9,1.8,0.0,3.89277e-05,,vbs,0.0,vds 0.0 3.3 0.05 vgs 0.8 3.3 0.5,id
111,0.9,2.3,0.0,5.67708e-05,,vbs,0.0,vds 0.0 3.3 0.05 vgs 0.8 3.3 0.5,id
112,0.9,2.8,0.0,7.25571e-05,,vbs,0.0,vds 0.0 3.3 0.05 vgs 0.8 3.3 0.5,id
113,0.9,3.3,0.0,8.66021e-05,,vbs,0.0,vds 0.0 3.3 0.05 vgs 0.8 3.3 0.5,id
114,0.95,0.8,0.0,4.79853e-06,,vbs,0.0,vds 0.0 3.3 0.05 vgs 0.8 3.3 0.5,id
115,0.95,1.3,0.0,2.04082e-05,,vbs,0.0,vds 0.0 3.3 0.05 vgs 0.8 3.3 0.5,id
116,0.95,1.8,0.0,3.95252e-05,,vbs,0.0,vds 0.0 3.3 0.05 vgs 0.8 3.3 0.5,id
117,0.95,2.3,0.0,5.81549e-05,,vbs,0.0,vds 0.0 3.3 0.05 vgs 0.8 3.3 0.5,id
118,0.95,2.8,0.0,7.47508e-05,,vbs,0.0,vds 0.0 3.3 0.05 vgs 0.8 3.3 0.5,id
119,0.95,3.3,0.0,8.95287e-05,,vbs,0.0,vds 0.0 3.3 0.05 vgs 0.8 3.3 0.5,id
120,1.0,0.8,0.0,4.85553e-06,,vbs,0.0,vds 0.0 3.3 0.05 vgs 0.8 3.3 0.5,id
121,1.0,1.3,0.0,2.05956e-05,,vbs,0.0,vds 0.0 3.3 0.05 vgs 0.8 3.3 0.5,id
122,1.0,1.8,0.0,4.004e-05,,vbs,0.0,vds 0.0 3.3 0.05 vgs 0.8 3.3 0.5,id
123,1.0,2.3,0.0,5.93854e-05,,vbs,0.0,vds 0.0 3.3 0.05 vgs 0.8 3.3 0.5,id
124,1.0,2.8,0.0,7.67865e-05,,vbs,0.0,vds 0.0 3.3 0.05 vgs 0.8 3.3 0.5,id
125,1.0,3.3,0.0,9.22946e-05,,vbs,0.0,vds 0.0 3.3 0.05 vgs 0.8 3.3 0.5,id
126,1.05,0.8,0.0,4.91174e-06,,vbs,0.0,vds 0.0 3.3 0.05 vgs 0.8 3.3 0.5,id
127,1.05,1.3,0.0,2.07714e-05,,vbs,0.0,vds 0.0 3.3 0.05 vgs 0.8 3.3 0.5,id
128,1.05,1.8,0.0,4.04898e-05,,vbs,0.0,vds 0.0 3.3 0.05 vgs 0.8 3.3 0.5,id
129,1.05,2.3,0.0,6.04673e-05,,vbs,0.0,vds 0.0 3.3 0.05 vgs 0.8 3.3 0.5,id
130,1.05,2.8,0.0,7.86656e-05,,vbs,0.0,vds 0.0 3.3 0.05 vgs 0.8 3.3 0.5,id
131,1.05,3.3,0.0,9.49029e-05,,vbs,0.0,vds 0.0 3.3 0.05 vgs 0.8 3.3 0.5,id
132,1.1,0.8,0.0,4.96728e-06,,vbs,0.0,vds 0.0 3.3 0.05 vgs 0.8 3.3 0.5,id
133,1.1,1.3,0.0,2.09375e-05,,vbs,0.0,vds 0.0 3.3 0.05 vgs 0.8 3.3 0.5,id
134,1.1,1.8,0.0,4.08887e-05,,vbs,0.0,vds 0.0 3.3 0.05 vgs 0.8 3.3 0.5,id
135,1.1,2.3,0.0,6.14104e-05,,vbs,0.0,vds 0.0 3.3 0.05 vgs 0.8 3.3 0.5,id
136,1.1,2.8,0.0,8.03881e-05,,vbs,0.0,vds 0.0 3.3 0.05 vgs 0.8 3.3 0.5,id
137,1.1,3.3,0.0,9.73563e-05,,vbs,0.0,vds 0.0 3.3 0.05 vgs 0.8 3.3 0.5,id
138,1.15,0.8,0.0,5.02223e-06,,vbs,0.0,vds 0.0 3.3 0.05 vgs 0.8 3.3 0.5,id
139,1.15,1.3,0.0,2.10957e-05,,vbs,0.0,vds 0.0 3.3 0.05 vgs 0.8 3.3 0.5,id
140,1.15,1.8,0.0,4.12476e-05,,vbs,0.0,vds 0.0 3.3 0.05 vgs 0.8 3.3 0.5,id
141,1.15,2.3,0.0,6.22295e-05,,vbs,0.0,vds 0.0 3.3 0.05 vgs 0.8 3.3 0.5,id
142,1.15,2.8,0.0,8.19529e-05,,vbs,0.0,vds 0.0 3.3 0.05 vgs 0.8 3.3 0.5,id
143,1.15,3.3,0.0,9.96561e-05,,vbs,0.0,vds 0.0 3.3 0.05 vgs 0.8 3.3 0.5,id
144,1.2,0.8,0.0,5.07668e-06,,vbs,0.0,vds 0.0 3.3 0.05 vgs 0.8 3.3 0.5,id
145,1.2,1.3,0.0,2.12471e-05,,vbs,0.0,vds 0.0 3.3 0.05 vgs 0.8 3.3 0.5,id
146,1.2,1.8,0.0,4.15746e-05,,vbs,0.0,vds 0.0 3.3 0.05 vgs 0.8 3.3 0.5,id
147,1.2,2.3,0.0,6.2943e-05,,vbs,0.0,vds 0.0 3.3 0.05 vgs 0.8 3.3 0.5,id
148,1.2,2.8,0.0,8.33596e-05,,vbs,0.0,vds 0.0 3.3 0.05 vgs 0.8 3.3 0.5,id
149,1.2,3.3,0.0,0.000101802,,vbs,0.0,vds 0.0 3.3 0.05 vgs 0.8 3.3 0.5,id
150,1.25,0.8,0.0,5.13071e-06,,vbs,0.0,vds 0.0 3.3 0.05 vgs 0.8 3.3 0.5,id
151,1.25,1.3,0.0,2.13928e-05,,vbs,0.0,vds 0.0 3.3 0.05 vgs 0.8 3.3 0.5,id
152,1.25,1.8,0.0,4.18759e-05,,vbs,0.0,vds 0.0 3.3 0.05 vgs 0.8 3.3 0.5,id
153,1.25,2.3,0.0,6.35693e-05,,vbs,0.0,vds 0.0 3.3 0.05 vgs 0.8 3.3 0.5,id
154,1.25,2.8,0.0,8.46107e-05,,vbs,0.0,vds 0.0 3.3 0.05 vgs 0.8 3.3 0.5,id
155,1.25,3.3,0.0,0.000103793,,vbs,0.0,vds 0.0 3.3 0.05 vgs 0.8 3.3 0.5,id
156,1.3,0.8,0.0,5.18436e-06,,vbs,0.0,vds 0.0 3.3 0.05 vgs 0.8 3.3 0.5,id
157,1.3,1.3,0.0,2.15335e-05,,vbs,0.0,vds 0.0 3.3 0.05 vgs 0.8 3.3 0.5,id
158,1.3,1.8,0.0,4.21561e-05,,vbs,0.0,vds 0.0 3.3 0.05 vgs 0.8 3.3 0.5,id
159,1.3,2.3,0.0,6.41249e-05,,vbs,0.0,vds 0.0 3.3 0.05 vgs 0.8 3.3 0.5,id
160,1.3,2.8,0.0,8.57139e-05,,vbs,0.0,vds 0.0 3.3 0.05 vgs 0.8 3.3 0.5,id
161,1.3,3.3,0.0,0.000105625,,vbs,0.0,vds 0.0 3.3 0.05 vgs 0.8 3.3 0.5,id
162,1.35,0.8,0.0,5.23769e-06,,vbs,0.0,vds 0.0 3.3 0.05 vgs 0.8 3.3 0.5,id
163,1.35,1.3,0.0,2.16699e-05,,vbs,0.0,vds 0.0 3.3 0.05 vgs 0.8 3.3 0.5,id
164,1.35,1.8,0.0,4.24189e-05,,vbs,0.0,vds 0.0 3.3 0.05 vgs 0.8 3.3 0.5,id
165,1.35,2.3,0.0,6.46235e-05,,vbs,0.0,vds 0.0 3.3 0.05 vgs 0.8 3.3 0.5,id
166,1.35,2.8,0.0,8.6683e-05,,vbs,0.0,vds 0.0 3.3 0.05 vgs 0.8 3.3 0.5,id
167,1.35,3.3,0.0,0.000107296,,vbs,0.0,vds 0.0 3.3 0.05 vgs 0.8 3.3 0.5,id
168,1.4,0.8,0.0,5.29075e-06,,vbs,0.0,vds 0.0 3.3 0.05 vgs 0.8 3.3 0.5,id
169,1.4,1.3,0.0,2.18025e-05,,vbs,0.0,vds 0.0 3.3 0.05 vgs 0.8 3.3 0.5,id
170,1.4,1.8,0.0,4.26669e-05,,vbs,0.0,vds 0.0 3.3 0.05 vgs 0.8 3.3 0.5,id
171,1.4,2.3,0.0,6.50758e-05,,vbs,0.0,vds 0.0 3.3 0.05 vgs 0.8 3.3 0.5,id
172,1.4,2.8,0.0,8.75354e-05,,vbs,0.0,vds 0.0 3.3 0.05 vgs 0.8 3.3 0.5,id
173,1.4,3.3,0.0,0.000108802,,vbs,0.0,vds 0.0 3.3 0.05 vgs 0.8 3.3 0.5,id
174,1.45,0.8,0.0,5.34356e-06,,vbs,0.0,vds 0.0 3.3 0.05 vgs 0.8 3.3 0.5,id
175,1.45,1.3,0.0,2.19317e-05,,vbs,0.0,vds 0.0 3.3 0.05 vgs 0.8 3.3 0.5,id
176,1.45,1.8,0.0,4.29023e-05,,vbs,0.0,vds 0.0 3.3 0.05 vgs 0.8 3.3 0.5,id
177,1.45,2.3,0.0,6.54903e-05,,vbs,0.0,vds 0.0 3.3 0.05 vgs 0.8 3.3 0.5,id
178,1.45,2.8,0.0,8.82894e-05,,vbs,0.0,vds 0.0 3.3 0.05 vgs 0.8 3.3 0.5,id
179,1.45,3.3,0.0,0.000110148,,vbs,0.0,vds 0.0 3.3 0.05 vgs 0.8 3.3 0.5,id
180,1.5,0.8,0.0,5.39617e-06,,vbs,0.0,vds 0.0 3.3 0.05 vgs 0.8 3.3 0.5,id
181,1.5,1.3,0.0,2.2058e-05,,vbs,0.0,vds 0.0 3.3 0.05 vgs 0.8 3.3 0.5,id
182,1.5,1.8,0.0,4.3127e-05,,vbs,0.0,vds 0.0 3.3 0.05 vgs 0.8 3.3 0.5,id
183,1.5,2.3,0.0,6.58735e-05,,vbs,0.0,vds 0.0 3.3 0.05 vgs 0.8 3.3 0.5,id
184,1.5,2.8,0.0,8.89619e-05,,vbs,0.0,vds 0.0 3.3 0.05 vgs 0.8 3.3 0.5,id
185,1.5,3.3,0.0,0.000111342,,vbs,0.0,vds 0.0 3.3 0.05 vgs 0.8 3.3 0.5,id
186,1.55,0.8,0.0,5.44859e-06,,vbs,0.0,vds 0.0 3.3 0.05 vgs 0.8 3.3 0.5,id
187,1.55,1.3,0.0,2.21815e-05,,vbs,0.0,vds 0.0 3.3 0.05 vgs 0.8 3.3 0.5,id
188,1.55,1.8,0.0,4.33424e-05,,vbs,0.0,vds 0.0 3.3 0.05 vgs 0.8 3.3 0.5,id
189,1.55,2.3,0.0,6.62306e-05,,vbs,0.0,vds 0.0 3.3 0.05 vgs 0.8 3.3 0.5,id
190,1.55,2.8,0.0,8.95674e-05,,vbs,0.0,vds 0.0 3.3 0.05 vgs 0.8 3.3 0.5,id
191,1.55,3.3,0.0,0.000112398,,vbs,0.0,vds 0.0 3.3 0.05 vgs 0.8 3.3 0.5,id
192,1.6,0.8,0.0,5.50087e-06,,vbs,0.0,vds 0.0 3.3 0.05 vgs 0.8 3.3 0.5,id
193,1.6,1.3,0.0,2.23027e-05,,vbs,0.0,vds 0.0 3.3 0.05 vgs 0.8 3.3 0.5,id
194,1.6,1.8,0.0,4.35495e-05,,vbs,0.0,vds 0.0 3.3 0.05 vgs 0.8 3.3 0.5,id
195,1.6,2.3,0.0,6.65656e-05,,vbs,0.0,vds 0.0 3.3 0.05 vgs 0.8 3.3 0.5,id
196,1.6,2.8,0.0,9.01176e-05,,vbs,0.0,vds 0.0 3.3 0.05 vgs 0.8 3.3 0.5,id
197,1.6,3.3,0.0,0.000113334,,vbs,0.0,vds 0.0 3.3 0.05 vgs 0.8 3.3 0.5,id
198,1.65,0.8,0.0,5.55302e-06,,vbs,0.0,vds 0.0 3.3 0.05 vgs 0.8 3.3 0.5,id
199,1.65,1.3,0.0,2.24218e-05,,vbs,0.0,vds 0.0 3.3 0.05 vgs 0.8 3.3 0.5,id
200,1.65,1.8,0.0,4.37495e-05,,vbs,0.0,vds 0.0 3.3 0.05 vgs 0.8 3.3 0.5,id
201,1.65,2.3,0.0,6.68819e-05,,vbs,0.0,vds 0.0 3.3 0.05 vgs 0.8 3.3 0.5,id
202,1.65,2.8,0.0,9.06221e-05,,vbs,0.0,vds 0.0 3.3 0.05 vgs 0.8 3.3 0.5,id
203,1.65,3.3,0.0,0.000114169,,vbs,0.0,vds 0.0 3.3 0.05 vgs 0.8 3.3 0.5,id
204,1.7,0.8,0.0,5.60505e-06,,vbs,0.0,vds 0.0 3.3 0.05 vgs 0.8 3.3 0.5,id
205,1.7,1.3,0.0,2.25388e-05,,vbs,0.0,vds 0.0 3.3 0.05 vgs 0.8 3.3 0.5,id
206,1.7,1.8,0.0,4.3943e-05,,vbs,0.0,vds 0.0 3.3 0.05 vgs 0.8 3.3 0.5,id
207,1.7,2.3,0.0,6.71819e-05,,vbs,0.0,vds 0.0 3.3 0.05 vgs 0.8 3.3 0.5,id
208,1.7,2.8,0.0,9.10884e-05,,vbs,0.0,vds 0.0 3.3 0.05 vgs 0.8 3.3 0.5,id
209,1.7,3.3,0.0,0.000114919,,vbs,0.0,vds 0.0 3.3 0.05 vgs 0.8 3.3 0.5,id
210,1.75,0.8,0.0,5.657e-06,,vbs,0.0,vds 0.0 3.3 0.05 vgs 0.8 3.3 0.5,id
211,1.75,1.3,0.0,2.26541e-05,,vbs,0.0,vds 0.0 3.3 0.05 vgs 0.8 3.3 0.5,id
212,1.75,1.8,0.0,4.41308e-05,,vbs,0.0,vds 0.0 3.3 0.05 vgs 0.8 3.3 0.5,id
213,1.75,2.3,0.0,6.74678e-05,,vbs,0.0,vds 0.0 3.3 0.05 vgs 0.8 3.3 0.5,id
214,1.75,2.8,0.0,9.15224e-05,,vbs,0.0,vds 0.0 3.3 0.05 vgs 0.8 3.3 0.5,id
215,1.75,3.3,0.0,0.000115597,,vbs,0.0,vds 0.0 3.3 0.05 vgs 0.8 3.3 0.5,id
216,1.8,0.8,0.0,5.70888e-06,,vbs,0.0,vds 0.0 3.3 0.05 vgs 0.8 3.3 0.5,id
217,1.8,1.3,0.0,2.27678e-05,,vbs,0.0,vds 0.0 3.3 0.05 vgs 0.8 3.3 0.5,id
218,1.8,1.8,0.0,4.43135e-05,,vbs,0.0,vds 0.0 3.3 0.05 vgs 0.8 3.3 0.5,id
219,1.8,2.3,0.0,6.77413e-05,,vbs,0.0,vds 0.0 3.3 0.05 vgs 0.8 3.3 0.5,id
220,1.8,2.8,0.0,9.1929e-05,,vbs,0.0,vds 0.0 3.3 0.05 vgs 0.8 3.3 0.5,id
221,1.8,3.3,0.0,0.000116216,,vbs,0.0,vds 0.0 3.3 0.05 vgs 0.8 3.3 0.5,id
222,1.85,0.8,0.0,5.76071e-06,,vbs,0.0,vds 0.0 3.3 0.05 vgs 0.8 3.3 0.5,id
223,1.85,1.3,0.0,2.28799e-05,,vbs,0.0,vds 0.0 3.3 0.05 vgs 0.8 3.3 0.5,id
224,1.85,1.8,0.0,4.44915e-05,,vbs,0.0,vds 0.0 3.3 0.05 vgs 0.8 3.3 0.5,id
225,1.85,2.3,0.0,6.8004e-05,,vbs,0.0,vds 0.0 3.3 0.05 vgs 0.8 3.3 0.5,id
226,1.85,2.8,0.0,9.23121e-05,,vbs,0.0,vds 0.0 3.3 0.05 vgs 0.8 3.3 0.5,id
227,1.85,3.3,0.0,0.000116786,,vbs,0.0,vds 0.0 3.3 0.05 vgs 0.8 3.3 0.5,id
228,1.9,0.8,0.0,5.8125e-06,,vbs,0.0,vds 0.0 3.3 0.05 vgs 0.8 3.3 0.5,id
229,1.9,1.3,0.0,2.29907e-05,,vbs,0.0,vds 0.0 3.3 0.05 vgs 0.8 3.3 0.5,id
230,1.9,1.8,0.0,4.46653e-05,,vbs,0.0,vds 0.0 3.3 0.05 vgs 0.8 3.3 0.5,id
231,1.9,2.3,0.0,6.8257e-05,,vbs,0.0,vds 0.0 3.3 0.05 vgs 0.8 3.3 0.5,id
232,1.9,2.8,0.0,9.26748e-05,,vbs,0.0,vds 0.0 3.3 0.05 vgs 0.8 3.3 0.5,id
233,1.9,3.3,0.0,0.000117314,,vbs,0.0,vds 0.0 3.3 0.05 vgs 0.8 3.3 0.5,id
234,1.95,0.8,0.0,5.86427e-06,,vbs,0.0,vds 0.0 3.3 0.05 vgs 0.8 3.3 0.5,id
235,1.95,1.3,0.0,2.31002e-05,,vbs,0.0,vds 0.0 3.3 0.05 vgs 0.8 3.3 0.5,id
236,1.95,1.8,0.0,4.48353e-05,,vbs,0.0,vds 0.0 3.3 0.05 vgs 0.8 3.3 0.5,id
237,1.95,2.3,0.0,6.85013e-05,,vbs,0.0,vds 0.0 3.3 0.05 vgs 0.8 3.3 0.5,id
238,1.95,2.8,0.0,9.30197e-05,,vbs,0.0,vds 0.0 3.3 0.05 vgs 0.8 3.3 0.5,id
239,1.95,3.3,0.0,0.000117806,,vbs,0.0,vds 0.0 3.3 0.05 vgs 0.8 3.3 0.5,id
240,2.0,0.8,0.0,5.91604e-06,,vbs,0.0,vds 0.0 3.3 0.05 vgs 0.8 3.3 0.5,id
241,2.0,1.3,0.0,2.32086e-05,,vbs,0.0,vds 0.0 3.3 0.05 vgs 0.8 3.3 0.5,id
242,2.0,1.8,0.0,4.50018e-05,,vbs,0.0,vds 0.0 3.3 0.05 vgs 0.8 3.3 0.5,id
243,2.0,2.3,0.0,6.87379e-05,,vbs,0.0,vds 0.0 3.3 0.05 vgs 0.8 3.3 0.5,id
244,2.0,2.8,0.0,9.3349e-05,,vbs,0.0,vds 0.0 3.3 0.05 vgs 0.8 3.3 0.5,id
245,2.0,3.3,0.0,0.000118267,,vbs,0.0,vds 0.0 3.3 0.05 vgs 0.8 3.3 0.5,id
246,2.05,0.8,0.0,5.96782e-06,,vbs,0.0,vds 0.0 3.3 0.05 vgs 0.8 3.3 0.5,id
247,2.05,1.3,0.0,2.33158e-05,,vbs,0.0,vds 0.0 3.3 0.05 vgs 0.8 3.3 0.5,id
248,2.05,1.8,0.0,4.51651e-05,,vbs,0.0,vds 0.0 3.3 0.05 vgs 0.8 3.3 0.5,id
249,2.05,2.3,0.0,6.89675e-05,,vbs,0.0,vds 0.0 3.3 0.05 vgs 0.8 3.3 0.5,id
250,2.05,2.8,0.0,9.36644e-05,,vbs,0.0,vds 0.0 3.3 0.05 vgs 0.8 3.3 0.5,id
251,2.05,3.3,0.0,0.000118702,,vbs,0.0,vds 0.0 3.3 0.05 vgs 0.8 3.3 0.5,id
252,2.1,0.8,0.0,6.01964e-06,,vbs,0.0,vds 0.0 3.3 0.05 vgs 0.8 3.3 0.5,id
253,2.1,1.3,0.0,2.34221e-05,,vbs,0.0,vds 0.0 3.3 0.05 vgs 0.8 3.3 0.5,id
254,2.1,1.8,0.0,4.53255e-05,,vbs,0.0,vds 0.0 3.3 0.05 vgs 0.8 3.3 0.5,id
255,2.1,2.3,0.0,6.91907e-05,,vbs,0.0,vds 0.0 3.3 0.05 vgs 0.8 3.3 0.5,id
256,2.1,2.8,0.0,9.39676e-05,,vbs,0.0,vds 0.0 3.3 0.05 vgs 0.8 3.3 0.5,id
257,2.1,3.3,0.0,0.000119114,,vbs,0.0,vds 0.0 3.3 0.05 vgs 0.8 3.3 0.5,id
258,2.15,0.8,0.0,6.07151e-06,,vbs,0.0,vds 0.0 3.3 0.05 vgs 0.8 3.3 0.5,id
259,2.15,1.3,0.0,2.35275e-05,,vbs,0.0,vds 0.0 3.3 0.05 vgs 0.8 3.3 0.5,id
260,2.15,1.8,0.0,4.54831e-05,,vbs,0.0,vds 0.0 3.3 0.05 vgs 0.8 3.3 0.5,id
261,2.15,2.3,0.0,6.94081e-05,,vbs,0.0,vds 0.0 3.3 0.05 vgs 0.8 3.3 0.5,id
262,2.15,2.8,0.0,9.42596e-05,,vbs,0.0,vds 0.0 3.3 0.05 vgs 0.8 3.3 0.5,id
263,2.15,3.3,0.0,0.000119506,,vbs,0.0,vds 0.0 3.3 0.05 vgs 0.8 3.3 0.5,id
264,2.2,0.8,0.0,6.12345e-06,,vbs,0.0,vds 0.0 3.3 0.05 vgs 0.8 3.3 0.5,id
265,2.2,1.3,0.0,2.36321e-05,,vbs,0.0,vds 0.0 3.3 0.05 vgs 0.8 3.3 0.5,id
266,2.2,1.8,0.0,4.56382e-05,,vbs,0.0,vds 0.0 3.3 0.05 vgs 0.8 3.3 0.5,id
267,2.2,2.3,0.0,6.96202e-05,,vbs,0.0,vds 0.0 3.3 0.05 vgs 0.8 3.3 0.5,id
268,2.2,2.8,0.0,9.45418e-05,,vbs,0.0,vds 0.0 3.3 0.05 vgs 0.8 3.3 0.5,id
269,2.2,3.3,0.0,0.00011988,,vbs,0.0,vds 0.0 3.3 0.05 vgs 0.8 3.3 0.5,id
270,2.25,0.8,0.0,6.1755e-06,,vbs,0.0,vds 0.0 3.3 0.05 vgs 0.8 3.3 0.5,id
271,2.25,1.3,0.0,2.37359e-05,,vbs,0.0,vds 0.0 3.3 0.05 vgs 0.8 3.3 0.5,id
272,2.25,1.8,0.0,4.5791e-05,,vbs,0.0,vds 0.0 3.3 0.05 vgs 0.8 3.3 0.5,id
